T0D18 2824:756.566   SEGGER J-Link V6.62a Log File
T0D18 2824:756.673   DLL Compiled: Jan 31 2020 12:58:08
T0D18 2824:756.688   Logging started @ 2020-05-31 03:25
T0D18 2824:756.711 JLINK_SetWarnOutHandler(...)
T0D18 2824:756.724 - 0.020ms
T0D18 2824:756.742 JLINK_OpenEx(...)
T0D18 2824:758.430   Firmware: J-Link OB-SAM3U128-V2-NordicSemi compiled Jan 21 2020 17:30:48
T0D18 2824:762.168   Hardware: V1.00
T0D18 2824:762.203   S/N: 682199950
T0D18 2824:762.222   OEM: SEGGER
T0D18 2824:762.242   Feature(s): RDI, FlashBP, FlashDL, JFlash, GDB
T0D18 2824:764.520   TELNET listener socket opened on port 19021
T0D18 2824:769.145   WEBSRV Starting webserver
T0D18 2824:769.360   WEBSRV Webserver running on local port 19080
T0D18 2824:769.394 - 12.660ms returns "O.K."
T0D18 2824:769.439 JLINK_GetEmuCaps()
T0D18 2824:769.457 - 0.026ms returns 0xB8EA5A33
T0D18 2824:770.106 JLINK_TIF_GetAvailable(...)
T0D18 2824:770.730 - 0.637ms
T0D18 2824:770.761 JLINK_SetErrorOutHandler(...)
T0D18 2824:770.774 - 0.021ms
T0D18 2824:770.799 JLINK_ExecCommand("ProjectFile = "C:\Users\DUCM\Downloads\SHORTPATH\nRF5_SDK\examples\ble_peripheral\ble_app_uart_m\pca10040\s132\arm5_no_packs\JLinkSettings.ini"", ...). 
T0D18 2824:771.722 - 0.936ms returns 0x00
T0D18 2824:782.976 JLINK_ExecCommand("Device = nRF52832_xxAA", ...). 
T0D18 2824:791.362   Device "NRF52832_XXAA" selected.
T0D18 2824:791.846 - 8.839ms returns 0x00
T0D18 2824:791.874 JLINK_ExecCommand("DisableConnectionTimeout", ...). 
T0D18 2824:791.895 - 0.010ms returns 0x01
T0D18 2824:791.916 JLINK_GetHardwareVersion()
T0D18 2824:791.930 - 0.023ms returns 0x2710
T0D18 2824:791.950 JLINK_GetDLLVersion()  returns 66201
T0D18 2824:791.971 JLINK_GetFirmwareString(...)
T0D18 2824:791.984 - 0.019ms
T0D18 2824:809.679 JLINK_GetDLLVersion()  returns 66201
T0D18 2824:809.730 JLINK_GetCompileDateTime()
T0D18 2824:809.743 - 0.019ms
T0D18 2824:812.753 JLINK_GetFirmwareString(...)
T0D18 2824:812.800 - 0.052ms
T0D18 2824:815.204 JLINK_GetHardwareVersion()
T0D18 2824:815.228 - 0.031ms returns 0x2710
T0D18 2824:825.366 JLINK_TIF_Select(JLINKARM_TIF_SWD)
T0D18 2824:827.708 - 2.379ms returns 0x00
T0D18 2824:827.776 JLINK_SetSpeed(5000)
T0D18 2824:828.249 - 0.505ms
T0D18 2824:828.300 JLINK_GetId()
T0D18 2824:831.475   InitTarget() start
T0D18 2824:831.517    J-Link Script File: Executing InitTarget()
T0D18 2824:842.047   InitTarget() end
T0D18 2824:846.498   Found SW-DP with ID 0x2BA01477
T0D18 2824:854.577   DPIDR: 0x2BA01477
T0D18 2824:857.400   Scanning AP map to find all available APs
T0D18 2824:863.159   AP[2]: Stopped AP scan as end of AP map has been reached
T0D18 2824:865.662   AP[0]: AHB-AP (IDR: 0x24770011)
T0D18 2824:868.194   AP[1]: JTAG-AP (IDR: 0x02880000)
T0D18 2824:870.623   Iterating through AP map to find AHB-AP to use
T0D18 2824:875.224   AP[0]: Core found
T0D18 2824:877.908   AP[0]: AHB-AP ROM base: 0xE00FF000
T0D18 2824:881.922   CPUID register: 0x410FC241. Implementer code: 0x41 (ARM)
T0D18 2824:884.410   Found Cortex-M4 r0p1, Little endian.
T0D18 2824:986.386    -- Max. mem block: 0x000044E0
T0D18 2824:986.430    -- CPU_ReadMem(4 bytes @ 0xE000EDF0)
T0D18 2824:988.263    -- CPU_WriteMem(4 bytes @ 0xE000EDF0)
T0D18 2824:989.569    -- CPU_ReadMem(4 bytes @ 0xE0002000)
T0D18 2824:993.539   FPUnit: 6 code (BP) slots and 2 literal slots
T0D18 2824:993.587    -- CPU_ReadMem(4 bytes @ 0xE000EDFC)
T0D18 2824:994.630    -- CPU_WriteMem(4 bytes @ 0xE000EDFC)
T0D18 2824:995.674    -- CPU_ReadMem(4 bytes @ 0xE0001000)
T0D18 2824:996.944    -- CPU_WriteMem(4 bytes @ 0xE0001000)
T0D18 2824:998.216    -- CPU_ReadMem(4 bytes @ 0xE000ED88)
T0D18 2824:999.564    -- CPU_WriteMem(4 bytes @ 0xE000ED88)
T0D18 2825:000.811    -- CPU_ReadMem(4 bytes @ 0xE000ED88)
T0D18 2825:002.172    -- CPU_WriteMem(4 bytes @ 0xE000ED88)
T0D18 2825:006.935   CoreSight components:
T0D18 2825:010.633   ROMTbl[0] @ E00FF000
T0D18 2825:010.731    -- CPU_ReadMem(64 bytes @ 0xE00FF000)
T0D18 2825:012.808    -- CPU_ReadMem(32 bytes @ 0xE000EFE0)
T0D18 2825:016.872   ROMTbl[0][0]: E000E000, CID: B105E00D, PID: 000BB00C SCS-M7
T0D18 2825:016.972    -- CPU_ReadMem(32 bytes @ 0xE0001FE0)
T0D18 2825:020.851   ROMTbl[0][1]: E0001000, CID: B105E00D, PID: 003BB002 DWT
T0D18 2825:020.887    -- CPU_ReadMem(32 bytes @ 0xE0002FE0)
T0D18 2825:025.019   ROMTbl[0][2]: E0002000, CID: B105E00D, PID: 002BB003 FPB
T0D18 2825:025.059    -- CPU_ReadMem(32 bytes @ 0xE0000FE0)
T0D18 2825:029.719   ROMTbl[0][3]: E0000000, CID: B105E00D, PID: 003BB001 ITM
T0D18 2825:029.774    -- CPU_ReadMem(32 bytes @ 0xE0040FE0)
T0D18 2825:033.812   ROMTbl[0][4]: E0040000, CID: B105900D, PID: 000BB9A1 TPIU
T0D18 2825:033.853    -- CPU_ReadMem(32 bytes @ 0xE0041FE0)
T0D18 2825:038.064   ROMTbl[0][5]: E0041000, CID: B105900D, PID: 000BB925 ETM
T0D18 2825:038.959 - 210.676ms   returns 0x2BA01477
T0D18 2825:038.997 JLINK_GetDLLVersion()  returns 66201
T0D18 2825:039.018 JLINK_CORE_GetFound()
T0D18 2825:039.030 - 0.019ms returns 0xE0000FF
T0D18 2825:039.079 JLINK_GetDebugInfo(0x100 = JLINKARM_ROM_TABLE_ADDR_INDEX)
T0D18 2825:039.093   Value=0xE00FF000
T0D18 2825:039.111 - 0.039ms returns 0x00
T0D18 2825:041.681 JLINK_GetDebugInfo(0x100 = JLINKARM_ROM_TABLE_ADDR_INDEX)
T0D18 2825:041.706   Value=0xE00FF000
T0D18 2825:041.724 - 0.049ms returns 0x00
T0D18 2825:041.741 JLINK_GetDebugInfo(0x101 = JLINKARM_DEBUG_INFO_ETM_ADDR_INDEX)
T0D18 2825:041.753   Value=0xE0041000
T0D18 2825:041.771 - 0.037ms returns 0x00
T0D18 2825:041.791   JLINK_ReadMemEx(0xE0041FD0, 0x0020 Bytes, ..., Flags = 0x02000004)
T0D18 2825:041.826    -- CPU_ReadMem(32 bytes @ 0xE0041FD0)
T0D18 2825:043.260   Data:  04 00 00 00 00 00 00 00 00 00 00 00 00 00 00 00 ...
T0D18 2825:043.286 - 1.503ms returns 0x20
T0D18 2825:043.306 JLINK_GetDebugInfo(0x102 = JLINKARM_DEBUG_INFO_MTB_ADDR_INDEX)
T0D18 2825:043.320   Value=0x00000000
T0D18 2825:043.344 - 0.045ms returns 0x00
T0D18 2825:043.362 JLINK_GetDebugInfo(0x103 = JLINKARM_DEBUG_INFO_TPIU_ADDR_INDEX)
T0D18 2825:043.375   Value=0xE0040000
T0D18 2825:043.393 - 0.037ms returns 0x00
T0D18 2825:043.408 JLINK_GetDebugInfo(0x104 = JLINKARM_DEBUG_INFO_ITM_ADDR_INDEX)
T0D18 2825:043.421   Value=0xE0000000
T0D18 2825:043.439 - 0.038ms returns 0x00
T0D18 2825:043.464 JLINK_GetDebugInfo(0x105 = JLINKARM_DEBUG_INFO_DWT_ADDR_INDEX)
T0D18 2825:043.481   Value=0xE0001000
T0D18 2825:043.505 - 0.048ms returns 0x00
T0D18 2825:043.526 JLINK_GetDebugInfo(0x106 = JLINKARM_DEBUG_INFO_FPB_ADDR_INDEX)
T0D18 2825:043.547   Value=0xE0002000
T0D18 2825:043.572 - 0.056ms returns 0x00
T0D18 2825:043.595 JLINK_GetDebugInfo(0x107 = JLINKARM_DEBUG_INFO_NVIC_ADDR_INDEX)
T0D18 2825:043.613   Value=0xE000E000
T0D18 2825:043.639 - 0.051ms returns 0x00
T0D18 2825:043.659 JLINK_GetDebugInfo(0x10C = JLINKARM_DEBUG_INFO_DBG_ADDR_INDEX)
T0D18 2825:043.675   Value=0xE000EDF0
T0D18 2825:043.699 - 0.061ms returns 0x00
T0D18 2825:043.737 JLINK_GetDebugInfo(0x01 = Unknown)
T0D18 2825:043.753   Value=0x00000001
T0D18 2825:043.771 - 0.040ms returns 0x00
T0D18 2825:043.791   JLINK_ReadMemU32(0xE000ED00, 0x0001 Items, ...)
T0D18 2825:043.815    -- CPU_ReadMem(4 bytes @ 0xE000ED00)
T0D18 2825:044.818   Data:  41 C2 0F 41
T0D18 2825:044.854    - CPUID
T0D18 2825:044.872 - 1.089ms returns 1
T0D18 2825:044.894 JLINK_GetDebugInfo(0x10F = JLINKARM_DEBUG_INFO_HAS_CORTEX_M_SECURITY_EXT_INDEX)
T0D18 2825:044.909   Value=0x00000000
T0D18 2825:044.927 - 0.038ms returns 0x00
T0D18 2825:044.951 JLINK_SetResetType(JLINKARM_CM3_RESET_TYPE_NORMAL)
T0D18 2825:044.965 - 0.019ms returns JLINKARM_CM3_RESET_TYPE_NORMAL
T0D18 2825:044.981 JLINK_Reset()
T0D18 2825:045.001   CPU is running
T0D18 2825:045.022    -- CPU_WriteMem(4 bytes @ 0xE000EDF0)
T0D18 2825:046.052   CPU is running
T0D18 2825:046.102    -- CPU_WriteMem(4 bytes @ 0xE000EDFC)
T0D18 2825:049.901   Reset: Halt core after reset via DEMCR.VC_CORERESET.
T0D18 2825:053.771   Reset: Reset device via AIRCR.SYSRESETREQ.
T0D18 2825:053.813   CPU is running
T0D18 2825:053.835    -- CPU_WriteMem(4 bytes @ 0xE000ED0C)
T0D18 2825:108.606    -- CPU_ReadMem(4 bytes @ 0xE000EDF0)
T0D18 2825:109.720    -- CPU_ReadMem(4 bytes @ 0xE000EDF0)
T0D18 2825:110.955   CPU is running
T0D18 2825:110.983    -- CPU_WriteMem(4 bytes @ 0xE000EDF0)
T0D18 2825:111.929   CPU is running
T0D18 2825:111.958    -- CPU_WriteMem(4 bytes @ 0xE000EDFC)
T0D18 2825:119.437    -- CPU_ReadMem(4 bytes @ 0xE000EDF0)
T0D18 2825:128.411    -- CPU_WriteMem(4 bytes @ 0xE0002000)
T0D18 2825:129.551    -- CPU_ReadMem(4 bytes @ 0xE000EDFC)
T0D18 2825:130.873    -- CPU_ReadMem(4 bytes @ 0xE0001000)
T0D18 2825:132.099 - 87.131ms
T0D18 2825:132.160 JLINK_Halt()
T0D18 2825:132.174 - 0.021ms returns 0x00
T0D18 2825:132.223   JLINK_ReadMemU32(0xE000EDF0, 0x0001 Items, ...)
T0D18 2825:132.247    -- CPU_ReadMem(4 bytes @ 0xE000EDF0)
T0D18 2825:133.473   Data:  03 00 03 00
T0D18 2825:133.501    - DHCSR
T0D18 2825:133.519 - 1.304ms returns 1
T0D18 2825:133.541   JLINK_WriteU32(0xE000EDF0, 0xA05F0003)
T0D18 2825:133.560    - DHCSR
T0D18 2825:133.585    -- CPU_WriteMem(4 bytes @ 0xE000EDF0)
T0D18 2825:134.640 - 1.114ms returns 0
T0D18 2825:134.671   JLINK_WriteU32(0xE000EDFC, 0x01000000)
T0D18 2825:134.690    - DEMCR
T0D18 2825:134.713    -- CPU_WriteMem(4 bytes @ 0xE000EDFC)
T0D18 2825:135.897 - 1.253ms returns 0
T0D18 2825:145.933 JLINK_GetHWStatus(...)
T0D18 2825:146.512 - 0.597ms returns 0x00
T0D18 2825:153.979 JLINK_GetNumBPUnits(Type = 0xFFFFFF00)
T0D18 2825:154.020 - 0.048ms returns 0x06
T0D18 2825:154.037 JLINK_GetNumBPUnits(Type = 0xF0)
T0D18 2825:154.050 - 0.019ms returns 0x2000
T0D18 2825:154.066 JLINK_GetNumWPUnits()
T0D18 2825:154.079 - 0.019ms returns 0x04
T0D18 2825:161.316 JLINK_GetSpeed()
T0D18 2825:161.355 - 0.045ms returns 0x3E8
T0D18 2825:166.331   JLINK_ReadMemU32(0xE000E004, 0x0001 Items, ...)
T0D18 2825:166.383    -- CPU_ReadMem(4 bytes @ 0xE000E004)
T0D18 2825:167.641   Data:  01 00 00 00
T0D18 2825:167.671 - 1.348ms returns 1
T0D18 2825:167.692   JLINK_ReadMemU32(0xE000E004, 0x0001 Items, ...)
T0D18 2825:167.715    -- CPU_ReadMem(4 bytes @ 0xE000E004)
T0D18 2825:168.892   Data:  01 00 00 00
T0D18 2825:168.919 - 1.233ms returns 1
T0D18 2825:168.943 JLINK_WriteMemEx(0xE0001000, 0x001C Bytes, ..., Flags = 0x02000004)
T0D18 2825:168.958   Data:  01 00 00 00 00 00 00 00 00 00 00 00 00 00 00 00 ...
T0D18 2825:169.723    -- CPU_WriteMem(28 bytes @ 0xE0001000)
T0D18 2825:171.246 - 2.316ms returns 0x1C
T0D18 2825:171.278 JLINK_Halt()
T0D18 2825:171.291 - 0.020ms returns 0x00
T0D18 2825:171.309 JLINK_IsHalted()
T0D18 2825:171.323 - 0.020ms returns TRUE
T0D18 2825:174.474 JLINK_WriteMem(0x20000000, 0x06F4 Bytes, ...)
T0D18 2825:174.496   Data:  00 BE 0A E0 0D 78 2D 06 68 40 08 24 40 00 00 D3 ...
T0D18 2825:175.196    -- CPU_WriteMem(1780 bytes @ 0x20000000)
T0D18 2825:200.156 - 25.716ms returns 0x6F4
T0D18 2825:200.289 JLINK_WriteReg(R0, 0x00000000)
T0D18 2825:200.309 - 0.026ms returns 0x00
T0D18 2825:200.325 JLINK_WriteReg(R1, 0x03D09000)
T0D18 2825:200.339 - 0.020ms returns 0x00
T0D18 2825:200.355 JLINK_WriteReg(R2, 0x00000001)
T0D18 2825:200.367 - 0.019ms returns 0x00
T0D18 2825:200.383 JLINK_WriteReg(R3, 0x00000000)
T0D18 2825:200.397 - 0.019ms returns 0x00
T0D18 2825:200.412 JLINK_WriteReg(R4, 0x00000000)
T0D18 2825:200.427 - 0.020ms returns 0x00
T0D18 2825:200.442 JLINK_WriteReg(R5, 0x00000000)
T0D18 2825:200.455 - 0.019ms returns 0x00
T0D18 2825:200.470 JLINK_WriteReg(R6, 0x00000000)
T0D18 2825:200.483 - 0.019ms returns 0x00
T0D18 2825:200.499 JLINK_WriteReg(R7, 0x00000000)
T0D18 2825:200.511 - 0.019ms returns 0x00
T0D18 2825:200.527 JLINK_WriteReg(R8, 0x00000000)
T0D18 2825:200.540 - 0.019ms returns 0x00
T0D18 2825:200.556 JLINK_WriteReg(R9, 0x200006F0)
T0D18 2825:200.568 - 0.019ms returns 0x00
T0D18 2825:200.584 JLINK_WriteReg(R10, 0x00000000)
T0D18 2825:200.596 - 0.019ms returns 0x00
T0D18 2825:200.612 JLINK_WriteReg(R11, 0x00000000)
T0D18 2825:200.625 - 0.019ms returns 0x00
T0D18 2825:200.641 JLINK_WriteReg(R12, 0x00000000)
T0D18 2825:200.654 - 0.019ms returns 0x00
T0D18 2825:200.669 JLINK_WriteReg(R13 (SP), 0x20002000)
T0D18 2825:200.683 - 0.025ms returns 0x00
T0D18 2825:200.707 JLINK_WriteReg(R14, 0x20000001)
T0D18 2825:200.720 - 0.019ms returns 0x00
T0D18 2825:200.736 JLINK_WriteReg(R15 (PC), 0x20000020)
T0D18 2825:200.749 - 0.019ms returns 0x00
T0D18 2825:200.764 JLINK_WriteReg(XPSR, 0x01000000)
T0D18 2825:200.777 - 0.019ms returns 0x00
T0D18 2825:200.793 JLINK_WriteReg(MSP, 0x20002000)
T0D18 2825:200.805 - 0.019ms returns 0x00
T0D18 2825:200.821 JLINK_WriteReg(PSP, 0x20002000)
T0D18 2825:200.834 - 0.019ms returns 0x00
T0D18 2825:200.849 JLINK_WriteReg(CFBP, 0x00000000)
T0D18 2825:200.862 - 0.019ms returns 0x00
T0D18 2825:200.880   JLINK_SetBPEx(Addr = 0x20000000, Type = 0xFFFFFFF2)
T0D18 2825:200.905    -- CPU_ReadMem(2 bytes @ 0x20000000)
T0D18 2825:201.783 - 0.918ms returns 0x00000001
T0D18 2825:201.813 JLINK_Go()
T0D18 2825:201.830    -- CPU_WriteMem(2 bytes @ 0x20000000)
T0D18 2825:202.829    -- CPU_ReadMem(4 bytes @ 0xE0001000)
T0D18 2825:204.016    -- CPU_WriteMem(4 bytes @ 0xE0002008)
T0D18 2825:204.043    -- CPU_WriteMem(4 bytes @ 0xE000200C)
T0D18 2825:204.063    -- CPU_WriteMem(4 bytes @ 0xE0002010)
T0D18 2825:204.082    -- CPU_WriteMem(4 bytes @ 0xE0002014)
T0D18 2825:204.100    -- CPU_WriteMem(4 bytes @ 0xE0002018)
T0D18 2825:204.120    -- CPU_WriteMem(4 bytes @ 0xE000201C)
T0D18 2825:207.475    -- CPU_WriteMem(4 bytes @ 0xE0001004)
T0D18 2825:215.860 - 14.066ms
T0D18 2825:215.893 JLINK_IsHalted()
T0D18 2825:223.512    -- CPU_ReadMem(2 bytes @ 0x20000000)
T0D18 2825:224.545 - 8.669ms returns TRUE
T0D18 2825:224.584 JLINK_ReadReg(R15 (PC))
T0D18 2825:224.604 - 0.026ms returns 0x20000000
T0D18 2825:224.621 JLINK_ClrBPEx(BPHandle = 0x00000001)
T0D18 2825:224.635 - 0.020ms returns 0x00
T0D18 2825:224.651 JLINK_ReadReg(R0)
T0D18 2825:224.664 - 0.019ms returns 0x00000000
T0D18 2825:225.073 JLINK_WriteReg(R0, 0x00026000)
T0D18 2825:225.095 - 0.028ms returns 0x00
T0D18 2825:225.111 JLINK_WriteReg(R1, 0x00001000)
T0D18 2825:225.125 - 0.020ms returns 0x00
T0D18 2825:225.141 JLINK_WriteReg(R2, 0x000000FF)
T0D18 2825:225.153 - 0.019ms returns 0x00
T0D18 2825:225.169 JLINK_WriteReg(R3, 0x00000000)
T0D18 2825:225.181 - 0.019ms returns 0x00
T0D18 2825:225.198 JLINK_WriteReg(R4, 0x00000000)
T0D18 2825:225.211 - 0.019ms returns 0x00
T0D18 2825:225.227 JLINK_WriteReg(R5, 0x00000000)
T0D18 2825:225.240 - 0.019ms returns 0x00
T0D18 2825:225.255 JLINK_WriteReg(R6, 0x00000000)
T0D18 2825:225.268 - 0.019ms returns 0x00
T0D18 2825:225.283 JLINK_WriteReg(R7, 0x00000000)
T0D18 2825:225.296 - 0.021ms returns 0x00
T0D18 2825:225.318 JLINK_WriteReg(R8, 0x00000000)
T0D18 2825:225.336 - 0.027ms returns 0x00
T0D18 2825:225.359 JLINK_WriteReg(R9, 0x200006F0)
T0D18 2825:225.380 - 0.030ms returns 0x00
T0D18 2825:225.403 JLINK_WriteReg(R10, 0x00000000)
T0D18 2825:225.422 - 0.027ms returns 0x00
T0D18 2825:225.444 JLINK_WriteReg(R11, 0x00000000)
T0D18 2825:225.463 - 0.063ms returns 0x00
T0D18 2825:225.555 JLINK_WriteReg(R12, 0x00000000)
T0D18 2825:225.574 - 0.027ms returns 0x00
T0D18 2825:225.593 JLINK_WriteReg(R13 (SP), 0x20002000)
T0D18 2825:225.611 - 0.026ms returns 0x00
T0D18 2825:225.632 JLINK_WriteReg(R14, 0x20000001)
T0D18 2825:225.649 - 0.026ms returns 0x00
T0D18 2825:225.672 JLINK_WriteReg(R15 (PC), 0x20000344)
T0D18 2825:225.692 - 0.029ms returns 0x00
T0D18 2825:225.718 JLINK_WriteReg(XPSR, 0x01000000)
T0D18 2825:225.738 - 0.028ms returns 0x00
T0D18 2825:225.758 JLINK_WriteReg(MSP, 0x20002000)
T0D18 2825:225.776 - 0.026ms returns 0x00
T0D18 2825:225.797 JLINK_WriteReg(PSP, 0x20002000)
T0D18 2825:225.816 - 0.028ms returns 0x00
T0D18 2825:225.838 JLINK_WriteReg(CFBP, 0x00000000)
T0D18 2825:225.856 - 0.026ms returns 0x00
T0D18 2825:225.882   JLINK_SetBPEx(Addr = 0x20000000, Type = 0xFFFFFFF2)
T0D18 2825:225.908 - 0.038ms returns 0x00000002
T0D18 2825:225.932 JLINK_Go()
T0D18 2825:225.964    -- CPU_ReadMem(4 bytes @ 0xE0001000)
T0D18 2825:233.805 - 7.897ms
T0D18 2825:233.849 JLINK_IsHalted()
T0D18 2825:241.641    -- CPU_ReadMem(2 bytes @ 0x20000000)
T0D18 2825:242.811 - 8.974ms returns TRUE
T0D18 2825:242.886 JLINK_ReadReg(R15 (PC))
T0D18 2825:242.909 - 0.029ms returns 0x20000000
T0D18 2825:242.926 JLINK_ClrBPEx(BPHandle = 0x00000002)
T0D18 2825:242.939 - 0.020ms returns 0x00
T0D18 2825:242.955 JLINK_ReadReg(R0)
T0D18 2825:242.968 - 0.019ms returns 0x00000000
T0D18 2825:243.671 JLINK_WriteReg(R0, 0x00027000)
T0D18 2825:243.702 - 0.040ms returns 0x00
T0D18 2825:243.724 JLINK_WriteReg(R1, 0x00001000)
T0D18 2825:243.741 - 0.025ms returns 0x00
T0D18 2825:243.769 JLINK_WriteReg(R2, 0x000000FF)
T0D18 2825:243.787 - 0.026ms returns 0x00
T0D18 2825:243.808 JLINK_WriteReg(R3, 0x00000000)
T0D18 2825:243.830 - 0.030ms returns 0x00
T0D18 2825:243.850 JLINK_WriteReg(R4, 0x00000000)
T0D18 2825:243.867 - 0.025ms returns 0x00
T0D18 2825:243.887 JLINK_WriteReg(R5, 0x00000000)
T0D18 2825:243.904 - 0.025ms returns 0x00
T0D18 2825:243.924 JLINK_WriteReg(R6, 0x00000000)
T0D18 2825:243.941 - 0.026ms returns 0x00
T0D18 2825:243.964 JLINK_WriteReg(R7, 0x00000000)
T0D18 2825:243.982 - 0.027ms returns 0x00
T0D18 2825:244.004 JLINK_WriteReg(R8, 0x00000000)
T0D18 2825:244.023 - 0.029ms returns 0x00
T0D18 2825:244.045 JLINK_WriteReg(R9, 0x200006F0)
T0D18 2825:244.064 - 0.027ms returns 0x00
T0D18 2825:244.085 JLINK_WriteReg(R10, 0x00000000)
T0D18 2825:244.105 - 0.030ms returns 0x00
T0D18 2825:244.129 JLINK_WriteReg(R11, 0x00000000)
T0D18 2825:244.162 - 0.046ms returns 0x00
T0D18 2825:244.192 JLINK_WriteReg(R12, 0x00000000)
T0D18 2825:244.213 - 0.032ms returns 0x00
T0D18 2825:244.239 JLINK_WriteReg(R13 (SP), 0x20002000)
T0D18 2825:244.253 - 0.021ms returns 0x00
T0D18 2825:244.269 JLINK_WriteReg(R14, 0x20000001)
T0D18 2825:244.282 - 0.020ms returns 0x00
T0D18 2825:244.299 JLINK_WriteReg(R15 (PC), 0x20000344)
T0D18 2825:244.317 - 0.028ms returns 0x00
T0D18 2825:244.341 JLINK_WriteReg(XPSR, 0x01000000)
T0D18 2825:244.363 - 0.031ms returns 0x00
T0D18 2825:244.388 JLINK_WriteReg(MSP, 0x20002000)
T0D18 2825:244.413 - 0.035ms returns 0x00
T0D18 2825:244.438 JLINK_WriteReg(PSP, 0x20002000)
T0D18 2825:244.456 - 0.027ms returns 0x00
T0D18 2825:244.477 JLINK_WriteReg(CFBP, 0x00000000)
T0D18 2825:244.495 - 0.026ms returns 0x00
T0D18 2825:244.516   JLINK_SetBPEx(Addr = 0x20000000, Type = 0xFFFFFFF2)
T0D18 2825:244.540 - 0.034ms returns 0x00000003
T0D18 2825:244.559 JLINK_Go()
T0D18 2825:244.582    -- CPU_ReadMem(4 bytes @ 0xE0001000)
T0D18 2825:252.372 - 7.830ms
T0D18 2825:252.406 JLINK_IsHalted()
T0D18 2825:260.064    -- CPU_ReadMem(2 bytes @ 0x20000000)
T0D18 2825:261.243 - 8.860ms returns TRUE
T0D18 2825:261.287 JLINK_ReadReg(R15 (PC))
T0D18 2825:261.307 - 0.027ms returns 0x20000000
T0D18 2825:261.324 JLINK_ClrBPEx(BPHandle = 0x00000003)
T0D18 2825:261.338 - 0.019ms returns 0x00
T0D18 2825:261.389 JLINK_ReadReg(R0)
T0D18 2825:261.401 - 0.020ms returns 0x00000000
T0D18 2825:262.037 JLINK_WriteReg(R0, 0x00028000)
T0D18 2825:262.058 - 0.027ms returns 0x00
T0D18 2825:262.074 JLINK_WriteReg(R1, 0x00001000)
T0D18 2825:262.087 - 0.019ms returns 0x00
T0D18 2825:262.103 JLINK_WriteReg(R2, 0x000000FF)
T0D18 2825:262.115 - 0.019ms returns 0x00
T0D18 2825:262.131 JLINK_WriteReg(R3, 0x00000000)
T0D18 2825:262.144 - 0.019ms returns 0x00
T0D18 2825:262.160 JLINK_WriteReg(R4, 0x00000000)
T0D18 2825:262.173 - 0.020ms returns 0x00
T0D18 2825:262.189 JLINK_WriteReg(R5, 0x00000000)
T0D18 2825:262.202 - 0.019ms returns 0x00
T0D18 2825:262.217 JLINK_WriteReg(R6, 0x00000000)
T0D18 2825:262.230 - 0.019ms returns 0x00
T0D18 2825:262.245 JLINK_WriteReg(R7, 0x00000000)
T0D18 2825:262.258 - 0.019ms returns 0x00
T0D18 2825:262.275 JLINK_WriteReg(R8, 0x00000000)
T0D18 2825:262.288 - 0.019ms returns 0x00
T0D18 2825:262.304 JLINK_WriteReg(R9, 0x200006F0)
T0D18 2825:262.316 - 0.019ms returns 0x00
T0D18 2825:262.332 JLINK_WriteReg(R10, 0x00000000)
T0D18 2825:262.344 - 0.019ms returns 0x00
T0D18 2825:262.360 JLINK_WriteReg(R11, 0x00000000)
T0D18 2825:262.373 - 0.019ms returns 0x00
T0D18 2825:262.388 JLINK_WriteReg(R12, 0x00000000)
T0D18 2825:262.401 - 0.018ms returns 0x00
T0D18 2825:262.417 JLINK_WriteReg(R13 (SP), 0x20002000)
T0D18 2825:262.488 - 0.078ms returns 0x00
T0D18 2825:262.504 JLINK_WriteReg(R14, 0x20000001)
T0D18 2825:262.517 - 0.019ms returns 0x00
T0D18 2825:262.533 JLINK_WriteReg(R15 (PC), 0x20000344)
T0D18 2825:262.546 - 0.019ms returns 0x00
T0D18 2825:262.562 JLINK_WriteReg(XPSR, 0x01000000)
T0D18 2825:262.574 - 0.019ms returns 0x00
T0D18 2825:262.590 JLINK_WriteReg(MSP, 0x20002000)
T0D18 2825:262.603 - 0.019ms returns 0x00
T0D18 2825:262.619 JLINK_WriteReg(PSP, 0x20002000)
T0D18 2825:262.631 - 0.019ms returns 0x00
T0D18 2825:262.646 JLINK_WriteReg(CFBP, 0x00000000)
T0D18 2825:262.659 - 0.019ms returns 0x00
T0D18 2825:262.676   JLINK_SetBPEx(Addr = 0x20000000, Type = 0xFFFFFFF2)
T0D18 2825:262.696 - 0.027ms returns 0x00000004
T0D18 2825:262.713 JLINK_Go()
T0D18 2825:262.735    -- CPU_ReadMem(4 bytes @ 0xE0001000)
T0D18 2825:270.554 - 7.857ms
T0D18 2825:270.585 JLINK_IsHalted()
T0D18 2825:278.285    -- CPU_ReadMem(2 bytes @ 0x20000000)
T0D18 2825:279.598 - 9.026ms returns TRUE
T0D18 2825:279.636 JLINK_ReadReg(R15 (PC))
T0D18 2825:279.652 - 0.023ms returns 0x20000000
T0D18 2825:279.668 JLINK_ClrBPEx(BPHandle = 0x00000004)
T0D18 2825:279.682 - 0.021ms returns 0x00
T0D18 2825:279.700 JLINK_ReadReg(R0)
T0D18 2825:279.713 - 0.019ms returns 0x00000000
T0D18 2825:280.331 JLINK_WriteReg(R0, 0x00029000)
T0D18 2825:280.350 - 0.027ms returns 0x00
T0D18 2825:280.367 JLINK_WriteReg(R1, 0x00001000)
T0D18 2825:280.380 - 0.019ms returns 0x00
T0D18 2825:280.396 JLINK_WriteReg(R2, 0x000000FF)
T0D18 2825:280.409 - 0.019ms returns 0x00
T0D18 2825:280.424 JLINK_WriteReg(R3, 0x00000000)
T0D18 2825:280.437 - 0.019ms returns 0x00
T0D18 2825:280.452 JLINK_WriteReg(R4, 0x00000000)
T0D18 2825:280.465 - 0.019ms returns 0x00
T0D18 2825:280.481 JLINK_WriteReg(R5, 0x00000000)
T0D18 2825:280.493 - 0.019ms returns 0x00
T0D18 2825:280.509 JLINK_WriteReg(R6, 0x00000000)
T0D18 2825:280.522 - 0.019ms returns 0x00
T0D18 2825:280.537 JLINK_WriteReg(R7, 0x00000000)
T0D18 2825:280.557 - 0.026ms returns 0x00
T0D18 2825:280.573 JLINK_WriteReg(R8, 0x00000000)
T0D18 2825:280.585 - 0.019ms returns 0x00
T0D18 2825:280.601 JLINK_WriteReg(R9, 0x200006F0)
T0D18 2825:280.614 - 0.019ms returns 0x00
T0D18 2825:280.630 JLINK_WriteReg(R10, 0x00000000)
T0D18 2825:280.642 - 0.019ms returns 0x00
T0D18 2825:280.658 JLINK_WriteReg(R11, 0x00000000)
T0D18 2825:280.670 - 0.019ms returns 0x00
T0D18 2825:280.686 JLINK_WriteReg(R12, 0x00000000)
T0D18 2825:280.699 - 0.019ms returns 0x00
T0D18 2825:280.714 JLINK_WriteReg(R13 (SP), 0x20002000)
T0D18 2825:280.728 - 0.020ms returns 0x00
T0D18 2825:280.743 JLINK_WriteReg(R14, 0x20000001)
T0D18 2825:280.756 - 0.018ms returns 0x00
T0D18 2825:280.772 JLINK_WriteReg(R15 (PC), 0x20000344)
T0D18 2825:280.784 - 0.019ms returns 0x00
T0D18 2825:280.800 JLINK_WriteReg(XPSR, 0x01000000)
T0D18 2825:280.813 - 0.019ms returns 0x00
T0D18 2825:280.828 JLINK_WriteReg(MSP, 0x20002000)
T0D18 2825:280.841 - 0.019ms returns 0x00
T0D18 2825:280.856 JLINK_WriteReg(PSP, 0x20002000)
T0D18 2825:280.869 - 0.019ms returns 0x00
T0D18 2825:280.885 JLINK_WriteReg(CFBP, 0x00000000)
T0D18 2825:280.897 - 0.019ms returns 0x00
T0D18 2825:280.914   JLINK_SetBPEx(Addr = 0x20000000, Type = 0xFFFFFFF2)
T0D18 2825:280.933 - 0.026ms returns 0x00000005
T0D18 2825:280.950 JLINK_Go()
T0D18 2825:280.970    -- CPU_ReadMem(4 bytes @ 0xE0001000)
T0D18 2825:289.075 - 8.142ms
T0D18 2825:289.109 JLINK_IsHalted()
T0D18 2825:296.960    -- CPU_ReadMem(2 bytes @ 0x20000000)
T0D18 2825:298.122 - 9.026ms returns TRUE
T0D18 2825:298.156 JLINK_ReadReg(R15 (PC))
T0D18 2825:298.173 - 0.023ms returns 0x20000000
T0D18 2825:298.189 JLINK_ClrBPEx(BPHandle = 0x00000005)
T0D18 2825:298.203 - 0.019ms returns 0x00
T0D18 2825:298.253 JLINK_ReadReg(R0)
T0D18 2825:298.266 - 0.019ms returns 0x00000000
T0D18 2825:298.903 JLINK_WriteReg(R0, 0x0002A000)
T0D18 2825:298.925 - 0.028ms returns 0x00
T0D18 2825:298.941 JLINK_WriteReg(R1, 0x00001000)
T0D18 2825:298.955 - 0.019ms returns 0x00
T0D18 2825:298.970 JLINK_WriteReg(R2, 0x000000FF)
T0D18 2825:298.992 - 0.028ms returns 0x00
T0D18 2825:299.008 JLINK_WriteReg(R3, 0x00000000)
T0D18 2825:299.021 - 0.019ms returns 0x00
T0D18 2825:299.036 JLINK_WriteReg(R4, 0x00000000)
T0D18 2825:299.049 - 0.019ms returns 0x00
T0D18 2825:299.065 JLINK_WriteReg(R5, 0x00000000)
T0D18 2825:299.080 - 0.024ms returns 0x00
T0D18 2825:299.099 JLINK_WriteReg(R6, 0x00000000)
T0D18 2825:299.112 - 0.019ms returns 0x00
T0D18 2825:299.127 JLINK_WriteReg(R7, 0x00000000)
T0D18 2825:299.140 - 0.019ms returns 0x00
T0D18 2825:299.156 JLINK_WriteReg(R8, 0x00000000)
T0D18 2825:299.169 - 0.019ms returns 0x00
T0D18 2825:299.184 JLINK_WriteReg(R9, 0x200006F0)
T0D18 2825:299.197 - 0.019ms returns 0x00
T0D18 2825:299.216 JLINK_WriteReg(R10, 0x00000000)
T0D18 2825:299.228 - 0.019ms returns 0x00
T0D18 2825:299.244 JLINK_WriteReg(R11, 0x00000000)
T0D18 2825:299.256 - 0.018ms returns 0x00
T0D18 2825:299.272 JLINK_WriteReg(R12, 0x00000000)
T0D18 2825:299.285 - 0.019ms returns 0x00
T0D18 2825:299.301 JLINK_WriteReg(R13 (SP), 0x20002000)
T0D18 2825:299.314 - 0.020ms returns 0x00
T0D18 2825:299.330 JLINK_WriteReg(R14, 0x20000001)
T0D18 2825:299.343 - 0.019ms returns 0x00
T0D18 2825:299.358 JLINK_WriteReg(R15 (PC), 0x20000344)
T0D18 2825:299.371 - 0.019ms returns 0x00
T0D18 2825:299.387 JLINK_WriteReg(XPSR, 0x01000000)
T0D18 2825:299.399 - 0.019ms returns 0x00
T0D18 2825:299.415 JLINK_WriteReg(MSP, 0x20002000)
T0D18 2825:299.428 - 0.019ms returns 0x00
T0D18 2825:299.443 JLINK_WriteReg(PSP, 0x20002000)
T0D18 2825:299.456 - 0.019ms returns 0x00
T0D18 2825:299.471 JLINK_WriteReg(CFBP, 0x00000000)
T0D18 2825:299.484 - 0.019ms returns 0x00
T0D18 2825:299.501   JLINK_SetBPEx(Addr = 0x20000000, Type = 0xFFFFFFF2)
T0D18 2825:299.520 - 0.026ms returns 0x00000006
T0D18 2825:299.536 JLINK_Go()
T0D18 2825:299.557    -- CPU_ReadMem(4 bytes @ 0xE0001000)
T0D18 2825:307.112 - 7.598ms
T0D18 2825:307.149 JLINK_IsHalted()
T0D18 2825:314.675    -- CPU_ReadMem(2 bytes @ 0x20000000)
T0D18 2825:315.848 - 8.714ms returns TRUE
T0D18 2825:315.879 JLINK_ReadReg(R15 (PC))
T0D18 2825:315.895 - 0.022ms returns 0x20000000
T0D18 2825:315.911 JLINK_ClrBPEx(BPHandle = 0x00000006)
T0D18 2825:315.925 - 0.020ms returns 0x00
T0D18 2825:315.941 JLINK_ReadReg(R0)
T0D18 2825:315.954 - 0.019ms returns 0x00000000
T0D18 2825:316.614 JLINK_WriteReg(R0, 0x0002B000)
T0D18 2825:316.634 - 0.027ms returns 0x00
T0D18 2825:316.650 JLINK_WriteReg(R1, 0x00001000)
T0D18 2825:316.663 - 0.019ms returns 0x00
T0D18 2825:316.679 JLINK_WriteReg(R2, 0x000000FF)
T0D18 2825:316.692 - 0.019ms returns 0x00
T0D18 2825:316.708 JLINK_WriteReg(R3, 0x00000000)
T0D18 2825:316.720 - 0.019ms returns 0x00
T0D18 2825:316.736 JLINK_WriteReg(R4, 0x00000000)
T0D18 2825:316.748 - 0.019ms returns 0x00
T0D18 2825:316.764 JLINK_WriteReg(R5, 0x00000000)
T0D18 2825:316.777 - 0.019ms returns 0x00
T0D18 2825:316.792 JLINK_WriteReg(R6, 0x00000000)
T0D18 2825:316.805 - 0.019ms returns 0x00
T0D18 2825:316.821 JLINK_WriteReg(R7, 0x00000000)
T0D18 2825:316.834 - 0.019ms returns 0x00
T0D18 2825:316.850 JLINK_WriteReg(R8, 0x00000000)
T0D18 2825:316.862 - 0.019ms returns 0x00
T0D18 2825:316.878 JLINK_WriteReg(R9, 0x200006F0)
T0D18 2825:316.891 - 0.019ms returns 0x00
T0D18 2825:316.906 JLINK_WriteReg(R10, 0x00000000)
T0D18 2825:316.919 - 0.019ms returns 0x00
T0D18 2825:316.934 JLINK_WriteReg(R11, 0x00000000)
T0D18 2825:316.947 - 0.019ms returns 0x00
T0D18 2825:316.963 JLINK_WriteReg(R12, 0x00000000)
T0D18 2825:316.975 - 0.019ms returns 0x00
T0D18 2825:316.991 JLINK_WriteReg(R13 (SP), 0x20002000)
T0D18 2825:317.004 - 0.019ms returns 0x00
T0D18 2825:317.020 JLINK_WriteReg(R14, 0x20000001)
T0D18 2825:317.032 - 0.018ms returns 0x00
T0D18 2825:317.048 JLINK_WriteReg(R15 (PC), 0x20000344)
T0D18 2825:317.060 - 0.019ms returns 0x00
T0D18 2825:317.076 JLINK_WriteReg(XPSR, 0x01000000)
T0D18 2825:317.089 - 0.019ms returns 0x00
T0D18 2825:317.104 JLINK_WriteReg(MSP, 0x20002000)
T0D18 2825:317.117 - 0.019ms returns 0x00
T0D18 2825:317.133 JLINK_WriteReg(PSP, 0x20002000)
T0D18 2825:317.150 - 0.026ms returns 0x00
T0D18 2825:317.169 JLINK_WriteReg(CFBP, 0x00000000)
T0D18 2825:317.182 - 0.019ms returns 0x00
T0D18 2825:317.201   JLINK_SetBPEx(Addr = 0x20000000, Type = 0xFFFFFFF2)
T0D18 2825:317.221 - 0.029ms returns 0x00000007
T0D18 2825:317.237 JLINK_Go()
T0D18 2825:317.258    -- CPU_ReadMem(4 bytes @ 0xE0001000)
T0D18 2825:324.974 - 7.756ms
T0D18 2825:325.011 JLINK_IsHalted()
T0D18 2825:332.855    -- CPU_ReadMem(2 bytes @ 0x20000000)
T0D18 2825:334.129 - 9.132ms returns TRUE
T0D18 2825:334.161 JLINK_ReadReg(R15 (PC))
T0D18 2825:334.179 - 0.025ms returns 0x20000000
T0D18 2825:334.228 JLINK_ClrBPEx(BPHandle = 0x00000007)
T0D18 2825:334.242 - 0.020ms returns 0x00
T0D18 2825:334.258 JLINK_ReadReg(R0)
T0D18 2825:334.271 - 0.019ms returns 0x00000000
T0D18 2825:334.907 JLINK_WriteReg(R0, 0x0002C000)
T0D18 2825:334.926 - 0.026ms returns 0x00
T0D18 2825:334.943 JLINK_WriteReg(R1, 0x00001000)
T0D18 2825:334.956 - 0.019ms returns 0x00
T0D18 2825:334.972 JLINK_WriteReg(R2, 0x000000FF)
T0D18 2825:334.984 - 0.019ms returns 0x00
T0D18 2825:335.000 JLINK_WriteReg(R3, 0x00000000)
T0D18 2825:335.013 - 0.019ms returns 0x00
T0D18 2825:335.029 JLINK_WriteReg(R4, 0x00000000)
T0D18 2825:335.041 - 0.019ms returns 0x00
T0D18 2825:335.057 JLINK_WriteReg(R5, 0x00000000)
T0D18 2825:335.069 - 0.024ms returns 0x00
T0D18 2825:335.091 JLINK_WriteReg(R6, 0x00000000)
T0D18 2825:335.104 - 0.019ms returns 0x00
T0D18 2825:335.120 JLINK_WriteReg(R7, 0x00000000)
T0D18 2825:335.132 - 0.019ms returns 0x00
T0D18 2825:335.148 JLINK_WriteReg(R8, 0x00000000)
T0D18 2825:335.161 - 0.019ms returns 0x00
T0D18 2825:335.176 JLINK_WriteReg(R9, 0x200006F0)
T0D18 2825:335.189 - 0.019ms returns 0x00
T0D18 2825:335.204 JLINK_WriteReg(R10, 0x00000000)
T0D18 2825:335.217 - 0.019ms returns 0x00
T0D18 2825:335.233 JLINK_WriteReg(R11, 0x00000000)
T0D18 2825:335.246 - 0.019ms returns 0x00
T0D18 2825:335.261 JLINK_WriteReg(R12, 0x00000000)
T0D18 2825:335.274 - 0.018ms returns 0x00
T0D18 2825:335.289 JLINK_WriteReg(R13 (SP), 0x20002000)
T0D18 2825:335.303 - 0.019ms returns 0x00
T0D18 2825:335.319 JLINK_WriteReg(R14, 0x20000001)
T0D18 2825:335.331 - 0.020ms returns 0x00
T0D18 2825:335.347 JLINK_WriteReg(R15 (PC), 0x20000344)
T0D18 2825:335.360 - 0.019ms returns 0x00
T0D18 2825:335.376 JLINK_WriteReg(XPSR, 0x01000000)
T0D18 2825:335.390 - 0.020ms returns 0x00
T0D18 2825:335.406 JLINK_WriteReg(MSP, 0x20002000)
T0D18 2825:335.418 - 0.019ms returns 0x00
T0D18 2825:335.434 JLINK_WriteReg(PSP, 0x20002000)
T0D18 2825:335.447 - 0.019ms returns 0x00
T0D18 2825:335.462 JLINK_WriteReg(CFBP, 0x00000000)
T0D18 2825:335.475 - 0.019ms returns 0x00
T0D18 2825:335.491   JLINK_SetBPEx(Addr = 0x20000000, Type = 0xFFFFFFF2)
T0D18 2825:335.511 - 0.026ms returns 0x00000008
T0D18 2825:335.527 JLINK_Go()
T0D18 2825:335.548    -- CPU_ReadMem(4 bytes @ 0xE0001000)
T0D18 2825:343.166 - 7.655ms
T0D18 2825:343.200 JLINK_IsHalted()
T0D18 2825:350.620    -- CPU_ReadMem(2 bytes @ 0x20000000)
T0D18 2825:351.867 - 8.681ms returns TRUE
T0D18 2825:351.897 JLINK_ReadReg(R15 (PC))
T0D18 2825:351.913 - 0.023ms returns 0x20000000
T0D18 2825:351.930 JLINK_ClrBPEx(BPHandle = 0x00000008)
T0D18 2825:351.944 - 0.020ms returns 0x00
T0D18 2825:351.960 JLINK_ReadReg(R0)
T0D18 2825:351.973 - 0.019ms returns 0x00000000
T0D18 2825:352.610 JLINK_WriteReg(R0, 0x0002D000)
T0D18 2825:352.629 - 0.025ms returns 0x00
T0D18 2825:352.646 JLINK_WriteReg(R1, 0x00001000)
T0D18 2825:352.659 - 0.019ms returns 0x00
T0D18 2825:352.675 JLINK_WriteReg(R2, 0x000000FF)
T0D18 2825:352.687 - 0.019ms returns 0x00
T0D18 2825:352.703 JLINK_WriteReg(R3, 0x00000000)
T0D18 2825:352.716 - 0.019ms returns 0x00
T0D18 2825:352.732 JLINK_WriteReg(R4, 0x00000000)
T0D18 2825:352.745 - 0.019ms returns 0x00
T0D18 2825:352.760 JLINK_WriteReg(R5, 0x00000000)
T0D18 2825:352.773 - 0.019ms returns 0x00
T0D18 2825:352.789 JLINK_WriteReg(R6, 0x00000000)
T0D18 2825:352.802 - 0.019ms returns 0x00
T0D18 2825:352.821 JLINK_WriteReg(R7, 0x00000000)
T0D18 2825:352.838 - 0.029ms returns 0x00
T0D18 2825:352.860 JLINK_WriteReg(R8, 0x00000000)
T0D18 2825:352.873 - 0.019ms returns 0x00
T0D18 2825:352.888 JLINK_WriteReg(R9, 0x200006F0)
T0D18 2825:352.901 - 0.019ms returns 0x00
T0D18 2825:352.917 JLINK_WriteReg(R10, 0x00000000)
T0D18 2825:352.930 - 0.019ms returns 0x00
T0D18 2825:352.945 JLINK_WriteReg(R11, 0x00000000)
T0D18 2825:352.958 - 0.019ms returns 0x00
T0D18 2825:352.973 JLINK_WriteReg(R12, 0x00000000)
T0D18 2825:352.986 - 0.019ms returns 0x00
T0D18 2825:353.002 JLINK_WriteReg(R13 (SP), 0x20002000)
T0D18 2825:353.015 - 0.019ms returns 0x00
T0D18 2825:353.030 JLINK_WriteReg(R14, 0x20000001)
T0D18 2825:353.043 - 0.019ms returns 0x00
T0D18 2825:353.059 JLINK_WriteReg(R15 (PC), 0x20000344)
T0D18 2825:353.071 - 0.019ms returns 0x00
T0D18 2825:353.087 JLINK_WriteReg(XPSR, 0x01000000)
T0D18 2825:353.100 - 0.019ms returns 0x00
T0D18 2825:353.116 JLINK_WriteReg(MSP, 0x20002000)
T0D18 2825:353.129 - 0.019ms returns 0x00
T0D18 2825:353.144 JLINK_WriteReg(PSP, 0x20002000)
T0D18 2825:353.157 - 0.019ms returns 0x00
T0D18 2825:353.172 JLINK_WriteReg(CFBP, 0x00000000)
T0D18 2825:353.185 - 0.019ms returns 0x00
T0D18 2825:353.202   JLINK_SetBPEx(Addr = 0x20000000, Type = 0xFFFFFFF2)
T0D18 2825:353.224 - 0.029ms returns 0x00000009
T0D18 2825:353.240 JLINK_Go()
T0D18 2825:353.261    -- CPU_ReadMem(4 bytes @ 0xE0001000)
T0D18 2825:360.954 - 7.738ms
T0D18 2825:360.998 JLINK_IsHalted()
T0D18 2825:368.922    -- CPU_ReadMem(2 bytes @ 0x20000000)
T0D18 2825:370.136 - 9.152ms returns TRUE
T0D18 2825:370.167 JLINK_ReadReg(R15 (PC))
T0D18 2825:370.182 - 0.022ms returns 0x20000000
T0D18 2825:370.231 JLINK_ClrBPEx(BPHandle = 0x00000009)
T0D18 2825:370.244 - 0.020ms returns 0x00
T0D18 2825:370.260 JLINK_ReadReg(R0)
T0D18 2825:370.273 - 0.019ms returns 0x00000000
T0D18 2825:370.927 JLINK_WriteReg(R0, 0x0002E000)
T0D18 2825:370.947 - 0.026ms returns 0x00
T0D18 2825:370.963 JLINK_WriteReg(R1, 0x00001000)
T0D18 2825:370.976 - 0.019ms returns 0x00
T0D18 2825:370.991 JLINK_WriteReg(R2, 0x000000FF)
T0D18 2825:371.004 - 0.019ms returns 0x00
T0D18 2825:371.020 JLINK_WriteReg(R3, 0x00000000)
T0D18 2825:371.033 - 0.019ms returns 0x00
T0D18 2825:371.049 JLINK_WriteReg(R4, 0x00000000)
T0D18 2825:371.062 - 0.020ms returns 0x00
T0D18 2825:371.078 JLINK_WriteReg(R5, 0x00000000)
T0D18 2825:371.091 - 0.019ms returns 0x00
T0D18 2825:371.106 JLINK_WriteReg(R6, 0x00000000)
T0D18 2825:371.119 - 0.019ms returns 0x00
T0D18 2825:371.134 JLINK_WriteReg(R7, 0x00000000)
T0D18 2825:371.147 - 0.019ms returns 0x00
T0D18 2825:371.163 JLINK_WriteReg(R8, 0x00000000)
T0D18 2825:371.175 - 0.019ms returns 0x00
T0D18 2825:371.191 JLINK_WriteReg(R9, 0x200006F0)
T0D18 2825:371.204 - 0.018ms returns 0x00
T0D18 2825:371.220 JLINK_WriteReg(R10, 0x00000000)
T0D18 2825:371.232 - 0.019ms returns 0x00
T0D18 2825:371.248 JLINK_WriteReg(R11, 0x00000000)
T0D18 2825:371.261 - 0.019ms returns 0x00
T0D18 2825:371.276 JLINK_WriteReg(R12, 0x00000000)
T0D18 2825:371.289 - 0.019ms returns 0x00
T0D18 2825:371.308 JLINK_WriteReg(R13 (SP), 0x20002000)
T0D18 2825:371.321 - 0.019ms returns 0x00
T0D18 2825:371.337 JLINK_WriteReg(R14, 0x20000001)
T0D18 2825:371.350 - 0.019ms returns 0x00
T0D18 2825:371.365 JLINK_WriteReg(R15 (PC), 0x20000344)
T0D18 2825:371.378 - 0.019ms returns 0x00
T0D18 2825:371.393 JLINK_WriteReg(XPSR, 0x01000000)
T0D18 2825:371.406 - 0.019ms returns 0x00
T0D18 2825:371.422 JLINK_WriteReg(MSP, 0x20002000)
T0D18 2825:371.435 - 0.019ms returns 0x00
T0D18 2825:371.450 JLINK_WriteReg(PSP, 0x20002000)
T0D18 2825:371.463 - 0.019ms returns 0x00
T0D18 2825:371.479 JLINK_WriteReg(CFBP, 0x00000000)
T0D18 2825:371.492 - 0.019ms returns 0x00
T0D18 2825:371.509   JLINK_SetBPEx(Addr = 0x20000000, Type = 0xFFFFFFF2)
T0D18 2825:371.528 - 0.026ms returns 0x0000000A
T0D18 2825:371.550 JLINK_Go()
T0D18 2825:371.571    -- CPU_ReadMem(4 bytes @ 0xE0001000)
T0D18 2825:379.847 - 8.321ms
T0D18 2825:379.888 JLINK_IsHalted()
T0D18 2825:387.471    -- CPU_ReadMem(2 bytes @ 0x20000000)
T0D18 2825:388.675 - 8.801ms returns TRUE
T0D18 2825:388.707 JLINK_ReadReg(R15 (PC))
T0D18 2825:388.723 - 0.022ms returns 0x20000000
T0D18 2825:388.739 JLINK_ClrBPEx(BPHandle = 0x0000000A)
T0D18 2825:388.754 - 0.021ms returns 0x00
T0D18 2825:388.771 JLINK_ReadReg(R0)
T0D18 2825:388.783 - 0.019ms returns 0x00000000
T0D18 2825:389.405 JLINK_WriteReg(R0, 0x0002F000)
T0D18 2825:389.427 - 0.028ms returns 0x00
T0D18 2825:389.443 JLINK_WriteReg(R1, 0x00001000)
T0D18 2825:389.456 - 0.019ms returns 0x00
T0D18 2825:389.472 JLINK_WriteReg(R2, 0x000000FF)
T0D18 2825:389.485 - 0.019ms returns 0x00
T0D18 2825:389.501 JLINK_WriteReg(R3, 0x00000000)
T0D18 2825:389.513 - 0.019ms returns 0x00
T0D18 2825:389.529 JLINK_WriteReg(R4, 0x00000000)
T0D18 2825:389.542 - 0.019ms returns 0x00
T0D18 2825:389.558 JLINK_WriteReg(R5, 0x00000000)
T0D18 2825:389.570 - 0.019ms returns 0x00
T0D18 2825:389.586 JLINK_WriteReg(R6, 0x00000000)
T0D18 2825:389.599 - 0.019ms returns 0x00
T0D18 2825:389.614 JLINK_WriteReg(R7, 0x00000000)
T0D18 2825:389.627 - 0.019ms returns 0x00
T0D18 2825:389.642 JLINK_WriteReg(R8, 0x00000000)
T0D18 2825:389.655 - 0.019ms returns 0x00
T0D18 2825:389.671 JLINK_WriteReg(R9, 0x200006F0)
T0D18 2825:389.684 - 0.019ms returns 0x00
T0D18 2825:389.699 JLINK_WriteReg(R10, 0x00000000)
T0D18 2825:389.712 - 0.019ms returns 0x00
T0D18 2825:389.728 JLINK_WriteReg(R11, 0x00000000)
T0D18 2825:389.741 - 0.019ms returns 0x00
T0D18 2825:389.756 JLINK_WriteReg(R12, 0x00000000)
T0D18 2825:389.769 - 0.019ms returns 0x00
T0D18 2825:389.784 JLINK_WriteReg(R13 (SP), 0x20002000)
T0D18 2825:389.798 - 0.019ms returns 0x00
T0D18 2825:389.814 JLINK_WriteReg(R14, 0x20000001)
T0D18 2825:389.826 - 0.019ms returns 0x00
T0D18 2825:389.842 JLINK_WriteReg(R15 (PC), 0x20000344)
T0D18 2825:389.854 - 0.019ms returns 0x00
T0D18 2825:389.870 JLINK_WriteReg(XPSR, 0x01000000)
T0D18 2825:389.883 - 0.019ms returns 0x00
T0D18 2825:389.898 JLINK_WriteReg(MSP, 0x20002000)
T0D18 2825:389.912 - 0.020ms returns 0x00
T0D18 2825:389.928 JLINK_WriteReg(PSP, 0x20002000)
T0D18 2825:389.954 - 0.032ms returns 0x00
T0D18 2825:389.970 JLINK_WriteReg(CFBP, 0x00000000)
T0D18 2825:389.983 - 0.019ms returns 0x00
T0D18 2825:390.000   JLINK_SetBPEx(Addr = 0x20000000, Type = 0xFFFFFFF2)
T0D18 2825:390.019 - 0.026ms returns 0x0000000B
T0D18 2825:390.036 JLINK_Go()
T0D18 2825:390.056    -- CPU_ReadMem(4 bytes @ 0xE0001000)
T0D18 2825:397.805 - 7.796ms
T0D18 2825:397.851 JLINK_IsHalted()
T0D18 2825:405.623    -- CPU_ReadMem(2 bytes @ 0x20000000)
T0D18 2825:406.741 - 8.906ms returns TRUE
T0D18 2825:406.774 JLINK_ReadReg(R15 (PC))
T0D18 2825:406.790 - 0.023ms returns 0x20000000
T0D18 2825:406.807 JLINK_ClrBPEx(BPHandle = 0x0000000B)
T0D18 2825:406.821 - 0.020ms returns 0x00
T0D18 2825:406.876 JLINK_ReadReg(R0)
T0D18 2825:406.888 - 0.019ms returns 0x00000000
T0D18 2825:407.322 JLINK_WriteReg(R0, 0x00000001)
T0D18 2825:407.342 - 0.027ms returns 0x00
T0D18 2825:407.359 JLINK_WriteReg(R1, 0x00001000)
T0D18 2825:407.372 - 0.019ms returns 0x00
T0D18 2825:407.388 JLINK_WriteReg(R2, 0x000000FF)
T0D18 2825:407.401 - 0.019ms returns 0x00
T0D18 2825:407.416 JLINK_WriteReg(R3, 0x00000000)
T0D18 2825:407.429 - 0.019ms returns 0x00
T0D18 2825:407.445 JLINK_WriteReg(R4, 0x00000000)
T0D18 2825:407.458 - 0.019ms returns 0x00
T0D18 2825:407.473 JLINK_WriteReg(R5, 0x00000000)
T0D18 2825:407.486 - 0.019ms returns 0x00
T0D18 2825:407.502 JLINK_WriteReg(R6, 0x00000000)
T0D18 2825:407.515 - 0.019ms returns 0x00
T0D18 2825:407.530 JLINK_WriteReg(R7, 0x00000000)
T0D18 2825:407.542 - 0.018ms returns 0x00
T0D18 2825:407.558 JLINK_WriteReg(R8, 0x00000000)
T0D18 2825:407.571 - 0.019ms returns 0x00
T0D18 2825:407.587 JLINK_WriteReg(R9, 0x200006F0)
T0D18 2825:407.600 - 0.020ms returns 0x00
T0D18 2825:407.616 JLINK_WriteReg(R10, 0x00000000)
T0D18 2825:407.629 - 0.019ms returns 0x00
T0D18 2825:407.645 JLINK_WriteReg(R11, 0x00000000)
T0D18 2825:407.657 - 0.019ms returns 0x00
T0D18 2825:407.673 JLINK_WriteReg(R12, 0x00000000)
T0D18 2825:407.685 - 0.028ms returns 0x00
T0D18 2825:407.715 JLINK_WriteReg(R13 (SP), 0x20002000)
T0D18 2825:407.728 - 0.020ms returns 0x00
T0D18 2825:407.744 JLINK_WriteReg(R14, 0x20000001)
T0D18 2825:407.757 - 0.019ms returns 0x00
T0D18 2825:407.772 JLINK_WriteReg(R15 (PC), 0x20000090)
T0D18 2825:407.785 - 0.019ms returns 0x00
T0D18 2825:407.800 JLINK_WriteReg(XPSR, 0x01000000)
T0D18 2825:407.813 - 0.019ms returns 0x00
T0D18 2825:407.829 JLINK_WriteReg(MSP, 0x20002000)
T0D18 2825:407.842 - 0.019ms returns 0x00
T0D18 2825:407.857 JLINK_WriteReg(PSP, 0x20002000)
T0D18 2825:407.870 - 0.019ms returns 0x00
T0D18 2825:407.885 JLINK_WriteReg(CFBP, 0x00000000)
T0D18 2825:407.898 - 0.019ms returns 0x00
T0D18 2825:407.915   JLINK_SetBPEx(Addr = 0x20000000, Type = 0xFFFFFFF2)
T0D18 2825:407.934 - 0.026ms returns 0x0000000C
T0D18 2825:407.950 JLINK_Go()
T0D18 2825:407.972    -- CPU_ReadMem(4 bytes @ 0xE0001000)
T0D18 2825:415.808 - 7.879ms
T0D18 2825:415.845 JLINK_IsHalted()
T0D18 2825:423.264    -- CPU_ReadMem(2 bytes @ 0x20000000)
T0D18 2825:424.236 - 8.406ms returns TRUE
T0D18 2825:424.267 JLINK_ReadReg(R15 (PC))
T0D18 2825:424.283 - 0.023ms returns 0x20000000
T0D18 2825:424.300 JLINK_ClrBPEx(BPHandle = 0x0000000C)
T0D18 2825:424.313 - 0.020ms returns 0x00
T0D18 2825:424.329 JLINK_ReadReg(R0)
T0D18 2825:424.345 - 0.022ms returns 0x00000000
T0D18 2825:482.226 JLINK_WriteMem(0x20000000, 0x06F4 Bytes, ...)
T0D18 2825:482.251   Data:  00 BE 0A E0 0D 78 2D 06 68 40 08 24 40 00 00 D3 ...
T0D18 2825:482.283    -- CPU_WriteMem(1780 bytes @ 0x20000000)
T0D18 2825:507.124 - 24.937ms returns 0x6F4
T0D18 2825:507.259 JLINK_WriteReg(R0, 0x00000000)
T0D18 2825:507.283 - 0.033ms returns 0x00
T0D18 2825:507.305 JLINK_WriteReg(R1, 0x03D09000)
T0D18 2825:507.323 - 0.026ms returns 0x00
T0D18 2825:507.345 JLINK_WriteReg(R2, 0x00000002)
T0D18 2825:507.363 - 0.026ms returns 0x00
T0D18 2825:507.383 JLINK_WriteReg(R3, 0x00000000)
T0D18 2825:507.402 - 0.027ms returns 0x00
T0D18 2825:507.423 JLINK_WriteReg(R4, 0x00000000)
T0D18 2825:507.442 - 0.026ms returns 0x00
T0D18 2825:507.463 JLINK_WriteReg(R5, 0x00000000)
T0D18 2825:507.481 - 0.026ms returns 0x00
T0D18 2825:507.503 JLINK_WriteReg(R6, 0x00000000)
T0D18 2825:507.521 - 0.027ms returns 0x00
T0D18 2825:507.543 JLINK_WriteReg(R7, 0x00000000)
T0D18 2825:507.561 - 0.028ms returns 0x00
T0D18 2825:507.586 JLINK_WriteReg(R8, 0x00000000)
T0D18 2825:507.606 - 0.027ms returns 0x00
T0D18 2825:507.630 JLINK_WriteReg(R9, 0x200006F0)
T0D18 2825:507.651 - 0.034ms returns 0x00
T0D18 2825:507.675 JLINK_WriteReg(R10, 0x00000000)
T0D18 2825:507.689 - 0.020ms returns 0x00
T0D18 2825:507.705 JLINK_WriteReg(R11, 0x00000000)
T0D18 2825:507.719 - 0.020ms returns 0x00
T0D18 2825:507.736 JLINK_WriteReg(R12, 0x00000000)
T0D18 2825:507.758 - 0.031ms returns 0x00
T0D18 2825:507.781 JLINK_WriteReg(R13 (SP), 0x20002000)
T0D18 2825:507.804 - 0.030ms returns 0x00
T0D18 2825:507.821 JLINK_WriteReg(R14, 0x20000001)
T0D18 2825:507.835 - 0.019ms returns 0x00
T0D18 2825:507.850 JLINK_WriteReg(R15 (PC), 0x20000020)
T0D18 2825:507.869 - 0.025ms returns 0x00
T0D18 2825:507.890 JLINK_WriteReg(XPSR, 0x01000000)
T0D18 2825:507.907 - 0.026ms returns 0x00
T0D18 2825:507.928 JLINK_WriteReg(MSP, 0x20002000)
T0D18 2825:507.943 - 0.022ms returns 0x00
T0D18 2825:507.959 JLINK_WriteReg(PSP, 0x20002000)
T0D18 2825:507.972 - 0.019ms returns 0x00
T0D18 2825:507.988 JLINK_WriteReg(CFBP, 0x00000000)
T0D18 2825:508.001 - 0.019ms returns 0x00
T0D18 2825:508.022   JLINK_SetBPEx(Addr = 0x20000000, Type = 0xFFFFFFF2)
T0D18 2825:508.052    -- CPU_ReadMem(2 bytes @ 0x20000000)
T0D18 2825:509.065 - 1.062ms returns 0x0000000D
T0D18 2825:509.100 JLINK_Go()
T0D18 2825:509.118    -- CPU_WriteMem(2 bytes @ 0x20000000)
T0D18 2825:510.010    -- CPU_ReadMem(4 bytes @ 0xE0001000)
T0D18 2825:517.768 - 8.703ms
T0D18 2825:517.821 JLINK_IsHalted()
T0D18 2825:525.592    -- CPU_ReadMem(2 bytes @ 0x20000000)
T0D18 2825:526.790 - 8.982ms returns TRUE
T0D18 2825:526.819 JLINK_ReadReg(R15 (PC))
T0D18 2825:526.839 - 0.033ms returns 0x20000000
T0D18 2825:526.901 JLINK_ClrBPEx(BPHandle = 0x0000000D)
T0D18 2825:526.923 - 0.035ms returns 0x00
T0D18 2825:526.952 JLINK_ReadReg(R0)
T0D18 2825:526.977 - 0.032ms returns 0x00000000
T0D18 2825:527.430 JLINK_WriteMem(0x20000704, 0x00FC Bytes, ...)
T0D18 2825:527.450   Data:  B0 70 00 20 C1 63 02 00 C9 63 02 00 CB 63 02 00 ...
T0D18 2825:527.484    -- CPU_WriteMem(252 bytes @ 0x20000704)
T0D18 2825:531.678 - 4.262ms returns 0xFC
T0D18 2825:531.706 JLINK_WriteMem(0x20000800, 0x0400 Bytes, ...)
T0D18 2825:531.721   Data:  00 00 00 00 00 00 00 00 00 00 00 00 00 00 00 00 ...
T0D18 2825:531.762    -- CPU_WriteMem(1024 bytes @ 0x20000800)
T0D18 2825:546.566 - 14.878ms returns 0x400
T0D18 2825:546.603 JLINK_WriteMem(0x20000C00, 0x0400 Bytes, ...)
T0D18 2825:546.618   Data:  45 FA 00 98 38 BD 00 00 3F 0C 0F 00 80 51 01 00 ...
T0D18 2825:546.644    -- CPU_WriteMem(1024 bytes @ 0x20000C00)
T0D18 2825:561.603 - 15.023ms returns 0x400
T0D18 2825:561.646 JLINK_WriteMem(0x20001000, 0x0400 Bytes, ...)
T0D18 2825:561.661   Data:  70 47 03 46 11 F8 01 2B 00 F8 01 2B 00 2A F9 D1 ...
T0D18 2825:561.695    -- CPU_WriteMem(1024 bytes @ 0x20001000)
T0D18 2825:576.674 - 15.049ms returns 0x400
T0D18 2825:576.715 JLINK_WriteMem(0x20001400, 0x0304 Bytes, ...)
T0D18 2825:576.730   Data:  BD E8 10 40 00 F0 C6 BC 10 BD 00 00 A1 7B 02 00 ...
T0D18 2825:576.758    -- CPU_WriteMem(772 bytes @ 0x20001400)
T0D18 2825:588.222 - 11.528ms returns 0x304
T0D18 2825:588.268 JLINK_WriteReg(R0, 0x00026000)
T0D18 2825:588.285 - 0.024ms returns 0x00
T0D18 2825:588.334 JLINK_WriteReg(R1, 0x00001000)
T0D18 2825:588.348 - 0.019ms returns 0x00
T0D18 2825:588.364 JLINK_WriteReg(R2, 0x20000704)
T0D18 2825:588.377 - 0.019ms returns 0x00
T0D18 2825:588.392 JLINK_WriteReg(R3, 0x00000000)
T0D18 2825:588.405 - 0.019ms returns 0x00
T0D18 2825:588.421 JLINK_WriteReg(R4, 0x00000000)
T0D18 2825:588.434 - 0.019ms returns 0x00
T0D18 2825:588.450 JLINK_WriteReg(R5, 0x00000000)
T0D18 2825:588.463 - 0.019ms returns 0x00
T0D18 2825:588.479 JLINK_WriteReg(R6, 0x00000000)
T0D18 2825:588.492 - 0.019ms returns 0x00
T0D18 2825:588.508 JLINK_WriteReg(R7, 0x00000000)
T0D18 2825:588.520 - 0.019ms returns 0x00
T0D18 2825:588.536 JLINK_WriteReg(R8, 0x00000000)
T0D18 2825:588.549 - 0.019ms returns 0x00
T0D18 2825:588.565 JLINK_WriteReg(R9, 0x200006F0)
T0D18 2825:588.577 - 0.019ms returns 0x00
T0D18 2825:588.593 JLINK_WriteReg(R10, 0x00000000)
T0D18 2825:588.606 - 0.019ms returns 0x00
T0D18 2825:588.621 JLINK_WriteReg(R11, 0x00000000)
T0D18 2825:588.635 - 0.019ms returns 0x00
T0D18 2825:588.650 JLINK_WriteReg(R12, 0x00000000)
T0D18 2825:588.663 - 0.019ms returns 0x00
T0D18 2825:588.678 JLINK_WriteReg(R13 (SP), 0x20002000)
T0D18 2825:588.694 - 0.023ms returns 0x00
T0D18 2825:588.711 JLINK_WriteReg(R14, 0x20000001)
T0D18 2825:588.725 - 0.019ms returns 0x00
T0D18 2825:588.740 JLINK_WriteReg(R15 (PC), 0x2000020C)
T0D18 2825:588.753 - 0.019ms returns 0x00
T0D18 2825:588.769 JLINK_WriteReg(XPSR, 0x01000000)
T0D18 2825:588.783 - 0.021ms returns 0x00
T0D18 2825:588.799 JLINK_WriteReg(MSP, 0x20002000)
T0D18 2825:588.811 - 0.019ms returns 0x00
T0D18 2825:588.827 JLINK_WriteReg(PSP, 0x20002000)
T0D18 2825:588.840 - 0.019ms returns 0x00
T0D18 2825:588.856 JLINK_WriteReg(CFBP, 0x00000000)
T0D18 2825:588.868 - 0.019ms returns 0x00
T0D18 2825:588.885   JLINK_SetBPEx(Addr = 0x20000000, Type = 0xFFFFFFF2)
T0D18 2825:588.905 - 0.026ms returns 0x0000000E
T0D18 2825:588.921 JLINK_Go()
T0D18 2825:588.951    -- CPU_ReadMem(4 bytes @ 0xE0001000)
T0D18 2825:596.724 - 7.822ms
T0D18 2825:596.757 JLINK_IsHalted()
T0D18 2825:598.038 - 1.294ms returns FALSE
T0D18 2825:637.699 JLINK_IsHalted()
T0D18 2825:638.787 - 1.104ms returns FALSE
T0D18 2825:640.680 JLINK_IsHalted()
T0D18 2825:642.025 - 1.364ms returns FALSE
T0D18 2825:643.941 JLINK_IsHalted()
T0D18 2825:645.194 - 1.299ms returns FALSE
T0D18 2825:647.334 JLINK_IsHalted()
T0D18 2825:648.357 - 1.036ms returns FALSE
T0D18 2825:649.476 JLINK_IsHalted()
T0D18 2825:650.773 - 1.314ms returns FALSE
T0D18 2825:652.481 JLINK_IsHalted()
T0D18 2825:653.391 - 0.923ms returns FALSE
T0D18 2825:655.164 JLINK_IsHalted()
T0D18 2825:656.301 - 1.150ms returns FALSE
T0D18 2825:659.418 JLINK_IsHalted()
T0D18 2825:660.497 - 1.093ms returns FALSE
T0D18 2825:662.474 JLINK_IsHalted()
T0D18 2825:663.694 - 1.235ms returns FALSE
T0D18 2825:665.829 JLINK_IsHalted()
T0D18 2825:673.470    -- CPU_ReadMem(2 bytes @ 0x20000000)
T0D18 2825:674.671 - 8.855ms returns TRUE
T0D18 2825:674.699 JLINK_ReadReg(R15 (PC))
T0D18 2825:674.715 - 0.022ms returns 0x20000000
T0D18 2825:674.732 JLINK_ClrBPEx(BPHandle = 0x0000000E)
T0D18 2825:674.746 - 0.020ms returns 0x00
T0D18 2825:674.762 JLINK_ReadReg(R0)
T0D18 2825:674.775 - 0.019ms returns 0x00000000
T0D18 2825:675.451 JLINK_WriteMem(0x20000704, 0x00FC Bytes, ...)
T0D18 2825:675.471   Data:  04 04 00 10 20 C5 00 40 E4 0E 00 40 00 04 00 40 ...
T0D18 2825:675.496    -- CPU_WriteMem(252 bytes @ 0x20000704)
T0D18 2825:679.859 - 4.423ms returns 0xFC
T0D18 2825:679.889 JLINK_WriteMem(0x20000800, 0x0400 Bytes, ...)
T0D18 2825:679.904   Data:  00 D1 00 24 F4 60 00 2F DD D1 40 46 BD E8 F0 87 ...
T0D18 2825:679.929    -- CPU_WriteMem(1024 bytes @ 0x20000800)
T0D18 2825:694.841 - 15.044ms returns 0x400
T0D18 2825:694.978 JLINK_WriteMem(0x20000C00, 0x0400 Bytes, ...)
T0D18 2825:695.002   Data:  70 47 01 20 70 47 C3 68 8B 42 06 D8 11 44 00 69 ...
T0D18 2825:695.058    -- CPU_WriteMem(1024 bytes @ 0x20000C00)
T0D18 2825:710.100 - 15.157ms returns 0x400
T0D18 2825:710.160 JLINK_WriteMem(0x20001000, 0x0400 Bytes, ...)
T0D18 2825:710.183   Data:  B0 70 71 1C 01 22 C8 1D 03 F0 AA FE 08 B1 FF F7 ...
T0D18 2825:710.225    -- CPU_WriteMem(1024 bytes @ 0x20001000)
T0D18 2825:725.314 - 15.174ms returns 0x400
T0D18 2825:725.352 JLINK_WriteMem(0x20001400, 0x0304 Bytes, ...)
